T6840 6463:405 SEGGER J-Link V6.32i Log File (0000ms, 3649ms total)
T6840 6463:405 DLL Compiled: Jul 24 2018 15:19:55 (0000ms, 3649ms total)
T6840 6463:405 Logging started @ 2021-05-17 21:32 (0000ms, 3649ms total)
T6840 6463:405 JLINK_SetWarnOutHandler(...) (0000ms, 3649ms total)
T6840 6463:405 JLINK_OpenEx(...)
Firmware: J-Link Lite-XMC4200 Rev.1 compiled Mar  1 2019 11:28:26
Hardware: V1.00
S/N: 591028154
TELNET listener socket opened on port 19021Device "CORTEX-M4" selected.WEBSRV 
Starting webserver (0033ms, 3682ms total)
T6840 6463:405 WEBSRV Webserver running on local port 19080 (0033ms, 3682ms total)
T6840 6463:405   returns O.K. (0033ms, 3682ms total)
T6840 6463:438 JLINK_GetEmuCaps()  returns 0xB8EA5A33 (0000ms, 3682ms total)
T6840 6463:439 JLINK_TIF_GetAvailable(...) (0000ms, 3682ms total)
T6840 6463:439 JLINK_SetErrorOutHandler(...) (0000ms, 3682ms total)
T6840 6463:439 JLINK_ExecCommand("ProjectFile = "D:\study\XHY\XMCforgithub\core\9_FreeRTOS_Dynamic_Task\JLinkSettings.ini"", ...). Device "CORTEX-M4" selected.  returns 0x00 (0018ms, 3700ms total)
T6840 6463:469 JLINK_ExecCommand("Device = XMC4400-F100x512", ...). Device "XMC4400-512" selected.  returns 0x00 (0013ms, 3713ms total)
T6840 6463:482 JLINK_ExecCommand("DisableConnectionTimeout", ...).   returns 0x01 (0000ms, 3713ms total)
T6840 6463:482 JLINK_GetHardwareVersion()  returns 0x2710 (0000ms, 3713ms total)
T6840 6463:482 JLINK_GetDLLVersion()  returns 63209 (0000ms, 3713ms total)
T6840 6463:482 JLINK_GetFirmwareString(...) (0000ms, 3713ms total)
T6840 6463:495 JLINK_GetDLLVersion()  returns 63209 (0000ms, 3713ms total)
T6840 6463:495 JLINK_GetCompileDateTime() (0000ms, 3713ms total)
T6840 6463:499 JLINK_GetFirmwareString(...) (0000ms, 3713ms total)
T6840 6463:502 JLINK_GetHardwareVersion()  returns 0x2710 (0000ms, 3713ms total)
T6840 6463:512 JLINK_TIF_Select(JLINKARM_TIF_SWD)  returns 0x00 (0001ms, 3714ms total)
T6840 6463:513 JLINK_SetSpeed(5000) (0000ms, 3714ms total)
T6840 6463:513 JLINK_GetId()Performing XMC4500 connection sequence.
                JLINK_EMU_HasCapEx(0x0000002C)  returns 0x01 (0000ms, 0000ms total)
               >0x0D TIF> >0x28 TIF> >0x0D TIF> >0x28 TIF> >0x0D TIF> >0x28 TIF> >0x0D TIF> >0x28 TIF> >0x0D TIF> >0x21 TIF> >0x0D TIF> >0x21 TIF> >0x0D TIF> >0x21 TIF> >0x0D TIF> >0x21 TIF> >0x0D TIF> >0x28 TIF> >0x0D TIF> >0x28 TIF> >0x0D TIF> >0x28 TIF> >0x0D TIF> >0x28 TIF> >0x0D TIF> >0x28 TIF> >0x0D TIF> >0x28 TIF> >0x0D TIF> >0x28 TIF> >0x0D TIF> >0x28 TIF> >0x0D TIF> >0x28 TIF> >0x0D TIF> >0x28 TIF> >0x0D TIF> >0x21 TIF> >0x0D TIF> >0x28 TIF>Scanning AP map to find all available APs >0x0D TIF>
 >0x28 TIF> >0x0D TIF> >0x21 TIF> >0x0D TIF> >0x21 TIF> >0x0D TIF> >0x28 TIF> >0x0D TIF> >0x21 TIF> >0x0D TIF> >0x21 TIF>AP[1]: Stopped AP scan as end of AP map has been reachedAP[0]: AHB-AP (IDR: 0x24770011)Iterating through AP map to find AHB-AP to use >0x42 TIF> >0x28 TIF> >0x0D TIF> >0x28 TIF> >0x0D TIF> >0x21 TIF> >0x0D TIF> >0x21 TIF> >0x42 TIF> >0x28 TIF> >0x0D TIF> >0x28 TIF> >0x0D TIF> >0x28 TIF> >0x0D TIF> >0x21 TIF> >0x0D TIF> >0x21 TIF>AP[0]: Core foundAP[0]: AHB-AP ROM base: 0xE00FF000
 >0x0D TIF> >0x28 TIF> >0x0D TIF> >0x28 TIF> >0x0D TIF> >0x28 TIF> >0x0D TIF> >0x21 TIF> >0x0D TIF> >0x21 TIF>CPUID register: 0x410FC241. Implementer code: 0x41 (ARM)Found Cortex-M4 r0p1, Little endian. -- Max. mem block: 0x00003F10 -- CPU_ReadMem(4 bytes @ 0xE000EDF0) -- CPU_ReadMem(4 bytes @ 0xE0002000)FPUnit: 6 code (BP) slots and 2 literal slots -- CPU_ReadMem(4 bytes @ 0xE000EDFC) -- CPU_WriteMem(4 bytes @ 0xE000EDFC) -- CPU_ReadMem(4 bytes @ 0xE0001000) -- CPU_WriteMem(4 bytes @ 0xE0001000)
 -- CPU_ReadMem(4 bytes @ 0xE000ED88) -- CPU_WriteMem(4 bytes @ 0xE000ED88) -- CPU_ReadMem(4 bytes @ 0xE000ED88) -- CPU_WriteMem(4 bytes @ 0xE000ED88)CoreSight components:ROMTbl[0] @ E00FF000 -- CPU_ReadMem(16 bytes @ 0xE00FF000) -- CPU_ReadMem(16 bytes @ 0xE000EFF0) -- CPU_ReadMem(16 bytes @ 0xE000EFE0)ROMTbl[0][0]: E000E000, CID: B105E00D, PID: 000BB00C SCS-M7 -- CPU_ReadMem(16 bytes @ 0xE0001FF0) -- CPU_ReadMem(16 bytes @ 0xE0001FE0)ROMTbl[0][1]: E0001000, CID: B105E00D, PID: 003BB002 DWT
 -- CPU_ReadMem(16 bytes @ 0xE0002FF0) -- CPU_ReadMem(16 bytes @ 0xE0002FE0)ROMTbl[0][2]: E0002000, CID: B105E00D, PID: 002BB003 FPB -- CPU_ReadMem(16 bytes @ 0xE0000FF0) -- CPU_ReadMem(16 bytes @ 0xE0000FE0)ROMTbl[0][3]: E0000000, CID: B105E00D, PID: 003BB001 ITM -- CPU_ReadMem(16 bytes @ 0xE00FF010) -- CPU_ReadMem(16 bytes @ 0xE0040FF0) -- CPU_ReadMem(16 bytes @ 0xE0040FE0)ROMTbl[0][4]: E0040000, CID: B105900D, PID: 000BB9A1 TPIU -- CPU_ReadMem(16 bytes @ 0xE0041FF0)
 -- CPU_ReadMem(16 bytes @ 0xE0041FE0)ROMTbl[0][5]: E0041000, CID: B105900D, PID: 000BB925 ETM >0x0D TIF> >0x21 TIF>  returns 0x2BA01477 (0222ms, 3936ms total)
T6840 6463:735 JLINK_GetDLLVersion()  returns 63209 (0000ms, 3936ms total)
T6840 6463:735 JLINK_CORE_GetFound()  returns 0xE0000FF (0000ms, 3936ms total)
T6840 6463:735 JLINK_GetDebugInfo(0x100 = JLINKARM_ROM_TABLE_ADDR_INDEX) -- Value=0xE00FF000  returns 0x00 (0000ms, 3936ms total)
T6840 6463:738 JLINK_GetDebugInfo(0x100 = JLINKARM_ROM_TABLE_ADDR_INDEX) -- Value=0xE00FF000  returns 0x00 (0000ms, 3936ms total)
T6840 6463:738 JLINK_GetDebugInfo(0x101 = JLINKARM_DEBUG_INFO_ETM_ADDR_INDEX) -- Value=0xE0041000  returns 0x00 (0000ms, 3936ms total)
T6840 6463:738 JLINK_ReadMemEx(0xE0041FD0, 0x0020 Bytes, ..., Flags = 0x02000004) -- CPU_ReadMem(32 bytes @ 0xE0041FD0) - Data: 04 00 00 00 00 00 00 00 00 00 00 00 00 00 00 00 ...  returns 0x20 (0001ms, 3937ms total)
T6840 6463:739 JLINK_GetDebugInfo(0x102 = JLINKARM_DEBUG_INFO_MTB_ADDR_INDEX) -- Value=0x00000000  returns 0x00 (0000ms, 3937ms total)
T6840 6463:739 JLINK_GetDebugInfo(0x103 = JLINKARM_DEBUG_INFO_TPIU_ADDR_INDEX) -- Value=0xE0040000  returns 0x00 (0000ms, 3937ms total)
T6840 6463:739 JLINK_GetDebugInfo(0x104 = JLINKARM_DEBUG_INFO_ITM_ADDR_INDEX) -- Value=0xE0000000  returns 0x00 (0000ms, 3937ms total)
T6840 6463:739 JLINK_GetDebugInfo(0x105 = JLINKARM_DEBUG_INFO_DWT_ADDR_INDEX) -- Value=0xE0001000  returns 0x00 (0000ms, 3937ms total)
T6840 6463:739 JLINK_GetDebugInfo(0x106 = JLINKARM_DEBUG_INFO_FPB_ADDR_INDEX) -- Value=0xE0002000  returns 0x00 (0000ms, 3937ms total)
T6840 6463:739 JLINK_GetDebugInfo(0x107 = JLINKARM_DEBUG_INFO_NVIC_ADDR_INDEX) -- Value=0xE000E000  returns 0x00 (0000ms, 3937ms total)
T6840 6463:739 JLINK_GetDebugInfo(0x10C = JLINKARM_DEBUG_INFO_DBG_ADDR_INDEX) -- Value=0xE000EDF0  returns 0x00 (0000ms, 3937ms total)
T6840 6463:739 JLINK_GetDebugInfo(0x01 = Unknown) -- Value=0x00000001  returns 0x00 (0000ms, 3937ms total)
T6840 6463:739 JLINK_ReadMemU32(0xE000ED00, 0x0001 Items, ...) -- CPU_ReadMem(4 bytes @ 0xE000ED00) - Data: 41 C2 0F 41  returns 0x01 (0001ms, 3938ms total)
T6840 6463:740 JLINK_GetDebugInfo(0x10F = JLINKARM_DEBUG_INFO_HAS_CORTEX_M_SECURITY_EXT_INDEX) -- Value=0x00000000  returns 0x00 (0000ms, 3938ms total)
T6840 6463:740 JLINK_SetResetType(JLINKARM_CM3_RESET_TYPE_NORMAL)  returns JLINKARM_CM3_RESET_TYPE_CORE (0000ms, 3938ms total)
T6840 6463:740 JLINK_Reset()Performing XMC4500 reset -- CPU_ReadMem(4 bytes @ 0x0C000004) -- CPU_WriteMem(4 bytes @ 0xE0002000) -- CPU_ReadMem(4 bytes @ 0xE0002008) -- CPU_WriteMem(4 bytes @ 0xE0002008) -- CPU_WriteMem(4 bytes @ 0xE000ED0C) -- CPU is running -- CPU_WriteMem(4 bytes @ 0xE0002008) -- CPU_WriteMem(4 bytes @ 0xE0002000) -- CPU_ReadMem(4 bytes @ 0xE000EDFC) -- CPU_ReadMem(4 bytes @ 0xE0001000) (0036ms, 3974ms total)
T6840 6463:776 JLINK_Halt()  returns 0x00 (0000ms, 3974ms total)
T6840 6463:776 JLINK_ReadMemU32(0xE000EDF0, 0x0001 Items, ...) -- CPU_ReadMem(4 bytes @ 0xE000EDF0) - Data: 03 00 03 00  returns 0x01 (0001ms, 3975ms total)
T6840 6463:777 JLINK_WriteU32(0xE000EDF0, 0xA05F0003) -- CPU_WriteMem(4 bytes @ 0xE000EDF0)  returns 0x00 (0000ms, 3975ms total)
T6840 6463:777 JLINK_WriteU32(0xE000EDFC, 0x01000000) -- CPU_WriteMem(4 bytes @ 0xE000EDFC)  returns 0x00 (0001ms, 3976ms total)
T6840 6463:791 JLINK_GetHWStatus(...)  returns 0x00 (0000ms, 3976ms total)
T6840 6463:800 JLINK_GetNumBPUnits(Type = 0xFFFFFF00)  returns 0x06 (0000ms, 3976ms total)
T6840 6463:800 JLINK_GetNumBPUnits(Type = 0xF0)  returns 0x2000 (0000ms, 3976ms total)
T6840 6463:800 JLINK_GetNumWPUnits()  returns 0x04 (0000ms, 3976ms total)
T6840 6463:809 JLINK_GetSpeed()  returns 0xBB8 (0000ms, 3976ms total)
T6840 6463:815 JLINK_ReadMemU32(0xE000E004, 0x0001 Items, ...) -- CPU_ReadMem(4 bytes @ 0xE000E004) - Data: 03 00 00 00  returns 0x01 (0000ms, 3976ms total)
T6840 6463:815 JLINK_ReadMemU32(0xE000E004, 0x0001 Items, ...) -- CPU_ReadMem(4 bytes @ 0xE000E004) - Data: 03 00 00 00  returns 0x01 (0001ms, 3977ms total)
T6840 6463:816 JLINK_WriteMemEx(0xE0001000, 0x001C Bytes, ..., Flags = 0x02000004) - Data: 01 00 00 00 00 00 00 00 00 00 00 00 00 00 00 00 ... -- CPU_WriteMem(28 bytes @ 0xE0001000)  returns 0x1C (0001ms, 3978ms total)
T6840 6463:817 JLINK_Halt()  returns 0x00 (0000ms, 3978ms total)
T6840 6463:817 JLINK_IsHalted()  returns TRUE (0000ms, 3978ms total)
T6840 6463:821 JLINK_WriteMem(0x20000000, 0x0138 Bytes, ...) - Data: 00 BE 0A E0 0D 78 2D 06 68 40 08 24 40 00 00 D3 ... -- CPU_WriteMem(312 bytes @ 0x20000000)  returns 0x138 (0003ms, 3981ms total)
T6840 6463:824 JLINK_WriteReg(R0, 0x08000000)  returns 0x00 (0000ms, 3981ms total)
T6840 6463:824 JLINK_WriteReg(R1, 0x00B71B00)  returns 0x00 (0000ms, 3981ms total)
T6840 6463:824 JLINK_WriteReg(R2, 0x00000001)  returns 0x00 (0000ms, 3981ms total)
T6840 6463:824 JLINK_WriteReg(R3, 0x00000000)  returns 0x00 (0000ms, 3981ms total)
T6840 6463:824 JLINK_WriteReg(R4, 0x00000000)  returns 0x00 (0000ms, 3981ms total)
T6840 6463:824 JLINK_WriteReg(R5, 0x00000000)  returns 0x00 (0000ms, 3981ms total)
T6840 6463:824 JLINK_WriteReg(R6, 0x00000000)  returns 0x00 (0000ms, 3981ms total)
T6840 6463:824 JLINK_WriteReg(R7, 0x00000000)  returns 0x00 (0000ms, 3981ms total)
T6840 6463:824 JLINK_WriteReg(R8, 0x00000000)  returns 0x00 (0000ms, 3981ms total)
T6840 6463:824 JLINK_WriteReg(R9, 0x20000134)  returns 0x00 (0000ms, 3981ms total)
T6840 6463:824 JLINK_WriteReg(R10, 0x00000000)  returns 0x00 (0000ms, 3981ms total)
T6840 6463:824 JLINK_WriteReg(R11, 0x00000000)  returns 0x00 (0000ms, 3981ms total)
T6840 6463:824 JLINK_WriteReg(R12, 0x00000000)  returns 0x00 (0000ms, 3981ms total)
T6840 6463:824 JLINK_WriteReg(R13 (SP), 0x20001000)  returns 0x00 (0000ms, 3981ms total)
T6840 6463:824 JLINK_WriteReg(R14, 0x20000001)  returns 0x00 (0000ms, 3981ms total)
T6840 6463:824 JLINK_WriteReg(R15 (PC), 0x20000038)  returns 0x00 (0000ms, 3981ms total)
T6840 6463:824 JLINK_WriteReg(XPSR, 0x01000000)  returns 0x00 (0000ms, 3981ms total)
T6840 6463:824 JLINK_WriteReg(MSP, 0x20001000)  returns 0x00 (0000ms, 3981ms total)
T6840 6463:824 JLINK_WriteReg(PSP, 0x20001000)  returns 0x00 (0000ms, 3981ms total)
T6840 6463:824 JLINK_WriteReg(CFBP, 0x00000000)  returns 0x00 (0000ms, 3981ms total)
T6840 6463:824 JLINK_SetBPEx(Addr = 0x20000000, Type = 0xFFFFFFF2) -- CPU_ReadMem(2 bytes @ 0x20000000)  returns 0x00000001 (0001ms, 3982ms total)
T6840 6463:825 JLINK_Go() -- CPU_WriteMem(2 bytes @ 0x20000000) -- CPU_ReadMem(4 bytes @ 0xE0001000) -- CPU_WriteMem(4 bytes @ 0xE0002008) -- CPU_WriteMem(4 bytes @ 0xE000200C) -- CPU_WriteMem(4 bytes @ 0xE0002010) -- CPU_WriteMem(4 bytes @ 0xE0002014) -- CPU_WriteMem(4 bytes @ 0xE0002018) -- CPU_WriteMem(4 bytes @ 0xE000201C) -- CPU_WriteMem(4 bytes @ 0xE0001004) (0006ms, 3988ms total)
T6840 6463:831 JLINK_IsHalted() -- CPU_ReadMem(2 bytes @ 0x20000000)  returns TRUE (0004ms, 3992ms total)
T6840 6463:835 JLINK_ReadReg(R15 (PC))  returns 0x20000000 (0000ms, 3988ms total)
T6840 6463:835 JLINK_ClrBPEx(BPHandle = 0x00000001)  returns 0x00 (0000ms, 3988ms total)
T6840 6463:835 JLINK_ReadReg(R0)  returns 0x00000000 (0000ms, 3988ms total)
T6840 6463:835 JLINK_WriteReg(R0, 0x08000000)  returns 0x00 (0000ms, 3988ms total)
T6840 6463:835 JLINK_WriteReg(R1, 0x00004000)  returns 0x00 (0000ms, 3988ms total)
T6840 6463:835 JLINK_WriteReg(R2, 0x00000000)  returns 0x00 (0000ms, 3988ms total)
T6840 6463:835 JLINK_WriteReg(R3, 0x00000000)  returns 0x00 (0000ms, 3988ms total)
T6840 6463:835 JLINK_WriteReg(R4, 0x00000000)  returns 0x00 (0000ms, 3988ms total)
T6840 6463:835 JLINK_WriteReg(R5, 0x00000000)  returns 0x00 (0000ms, 3988ms total)
T6840 6463:835 JLINK_WriteReg(R6, 0x00000000)  returns 0x00 (0000ms, 3988ms total)
T6840 6463:835 JLINK_WriteReg(R7, 0x00000000)  returns 0x00 (0000ms, 3988ms total)
T6840 6463:835 JLINK_WriteReg(R8, 0x00000000)  returns 0x00 (0000ms, 3988ms total)
T6840 6463:835 JLINK_WriteReg(R9, 0x20000134)  returns 0x00 (0000ms, 3988ms total)
T6840 6463:835 JLINK_WriteReg(R10, 0x00000000)  returns 0x00 (0000ms, 3988ms total)
T6840 6463:835 JLINK_WriteReg(R11, 0x00000000)  returns 0x00 (0000ms, 3988ms total)
T6840 6463:835 JLINK_WriteReg(R12, 0x00000000)  returns 0x00 (0000ms, 3988ms total)
T6840 6463:835 JLINK_WriteReg(R13 (SP), 0x20001000)  returns 0x00 (0000ms, 3988ms total)
T6840 6463:835 JLINK_WriteReg(R14, 0x20000001)  returns 0x00 (0000ms, 3988ms total)
T6840 6463:835 JLINK_WriteReg(R15 (PC), 0x20000020)  returns 0x00 (0000ms, 3988ms total)
T6840 6463:835 JLINK_WriteReg(XPSR, 0x01000000)  returns 0x00 (0000ms, 3988ms total)
T6840 6463:835 JLINK_WriteReg(MSP, 0x20001000)  returns 0x00 (0000ms, 3988ms total)
T6840 6463:835 JLINK_WriteReg(PSP, 0x20001000)  returns 0x00 (0000ms, 3988ms total)
T6840 6463:835 JLINK_WriteReg(CFBP, 0x00000000)  returns 0x00 (0000ms, 3988ms total)
T6840 6463:835 JLINK_SetBPEx(Addr = 0x20000000, Type = 0xFFFFFFF2)  returns 0x00000002 (0000ms, 3988ms total)
T6840 6463:835 JLINK_Go() -- CPU_ReadMem(4 bytes @ 0xE0001000) (0003ms, 3991ms total)
T6840 6463:838 JLINK_IsHalted() -- CPU_ReadMem(2 bytes @ 0x20000000)  returns TRUE (0004ms, 3995ms total)
T6840 6463:842 JLINK_ReadReg(R15 (PC))  returns 0x20000000 (0000ms, 3991ms total)
T6840 6463:842 JLINK_ClrBPEx(BPHandle = 0x00000002)  returns 0x00 (0000ms, 3991ms total)
T6840 6463:842 JLINK_ReadReg(R0)  returns 0x00000001 (0000ms, 3991ms total)
T6840 6463:842 JLINK_WriteReg(R0, 0x08000000)  returns 0x00 (0000ms, 3991ms total)
T6840 6463:842 JLINK_WriteReg(R1, 0x00004000)  returns 0x00 (0000ms, 3991ms total)
T6840 6463:842 JLINK_WriteReg(R2, 0x00000000)  returns 0x00 (0000ms, 3991ms total)
T6840 6463:842 JLINK_WriteReg(R3, 0x00000000)  returns 0x00 (0000ms, 3991ms total)
T6840 6463:842 JLINK_WriteReg(R4, 0x00000000)  returns 0x00 (0000ms, 3991ms total)
T6840 6463:842 JLINK_WriteReg(R5, 0x00000000)  returns 0x00 (0000ms, 3991ms total)
T6840 6463:842 JLINK_WriteReg(R6, 0x00000000)  returns 0x00 (0000ms, 3991ms total)
T6840 6463:842 JLINK_WriteReg(R7, 0x00000000)  returns 0x00 (0000ms, 3991ms total)
T6840 6463:842 JLINK_WriteReg(R8, 0x00000000)  returns 0x00 (0000ms, 3991ms total)
T6840 6463:842 JLINK_WriteReg(R9, 0x20000134)  returns 0x00 (0000ms, 3991ms total)
T6840 6463:842 JLINK_WriteReg(R10, 0x00000000)  returns 0x00 (0000ms, 3991ms total)
T6840 6463:842 JLINK_WriteReg(R11, 0x00000000)  returns 0x00 (0000ms, 3991ms total)
T6840 6463:842 JLINK_WriteReg(R12, 0x00000000)  returns 0x00 (0000ms, 3991ms total)
T6840 6463:842 JLINK_WriteReg(R13 (SP), 0x20001000)  returns 0x00 (0000ms, 3991ms total)
T6840 6463:842 JLINK_WriteReg(R14, 0x20000001)  returns 0x00 (0000ms, 3991ms total)
T6840 6463:842 JLINK_WriteReg(R15 (PC), 0x20000040)  returns 0x00 (0000ms, 3991ms total)
T6840 6463:842 JLINK_WriteReg(XPSR, 0x01000000)  returns 0x00 (0000ms, 3991ms total)
T6840 6463:842 JLINK_WriteReg(MSP, 0x20001000)  returns 0x00 (0000ms, 3991ms total)
T6840 6463:842 JLINK_WriteReg(PSP, 0x20001000)  returns 0x00 (0000ms, 3991ms total)
T6840 6463:842 JLINK_WriteReg(CFBP, 0x00000000)  returns 0x00 (0000ms, 3991ms total)
T6840 6463:842 JLINK_SetBPEx(Addr = 0x20000000, Type = 0xFFFFFFF2)  returns 0x00000003 (0000ms, 3991ms total)
T6840 6463:842 JLINK_Go() -- CPU_ReadMem(4 bytes @ 0xE0001000) (0002ms, 3993ms total)
T6840 6463:844 JLINK_IsHalted()  returns FALSE (0001ms, 3994ms total)
T6840 6463:907 JLINK_IsHalted()  returns FALSE (0000ms, 3993ms total)
T6840 6463:909 JLINK_IsHalted()  returns FALSE (0000ms, 3993ms total)
T6840 6463:911 JLINK_IsHalted()  returns FALSE (0000ms, 3993ms total)
T6840 6463:913 JLINK_IsHalted()  returns FALSE (0000ms, 3993ms total)
T6840 6463:918 JLINK_IsHalted()  returns FALSE (0000ms, 3993ms total)
T6840 6463:920 JLINK_IsHalted()  returns FALSE (0000ms, 3993ms total)
T6840 6463:922 JLINK_IsHalted()  returns FALSE (0000ms, 3993ms total)
T6840 6463:924 JLINK_IsHalted()  returns FALSE (0000ms, 3993ms total)
T6840 6463:926 JLINK_IsHalted()  returns FALSE (0000ms, 3993ms total)
T6840 6463:928 JLINK_IsHalted()  returns FALSE (0000ms, 3993ms total)
T6840 6463:930 JLINK_IsHalted()  returns FALSE (0000ms, 3993ms total)
T6840 6463:932 JLINK_IsHalted()  returns FALSE (0000ms, 3993ms total)
T6840 6463:934 JLINK_IsHalted()  returns FALSE (0000ms, 3993ms total)
T6840 6463:936 JLINK_IsHalted()  returns FALSE (0000ms, 3993ms total)
T6840 6463:939 JLINK_IsHalted()  returns FALSE (0000ms, 3993ms total)
T6840 6463:941 JLINK_IsHalted()  returns FALSE (0000ms, 3993ms total)
T6840 6463:943 JLINK_IsHalted()  returns FALSE (0000ms, 3993ms total)
T6840 6463:945 JLINK_IsHalted()  returns FALSE (0000ms, 3993ms total)
T6840 6463:949 JLINK_IsHalted()  returns FALSE (0000ms, 3993ms total)
T6840 6463:951 JLINK_IsHalted()  returns FALSE (0000ms, 3993ms total)
T6840 6463:954 JLINK_IsHalted()  returns FALSE (0000ms, 3993ms total)
T6840 6463:956 JLINK_IsHalted()  returns FALSE (0000ms, 3993ms total)
T6840 6463:958 JLINK_IsHalted()  returns FALSE (0000ms, 3993ms total)
T6840 6463:961 JLINK_IsHalted()  returns FALSE (0000ms, 3993ms total)
T6840 6463:963 JLINK_IsHalted()  returns FALSE (0000ms, 3993ms total)
T6840 6463:965 JLINK_IsHalted()  returns FALSE (0000ms, 3993ms total)
T6840 6463:967 JLINK_IsHalted()  returns FALSE (0000ms, 3993ms total)
T6840 6463:970 JLINK_IsHalted()  returns FALSE (0000ms, 3993ms total)
T6840 6463:972 JLINK_IsHalted()  returns FALSE (0000ms, 3993ms total)
T6840 6463:974 JLINK_IsHalted()  returns FALSE (0000ms, 3993ms total)
T6840 6463:978 JLINK_IsHalted()  returns FALSE (0000ms, 3993ms total)
T6840 6463:982 JLINK_IsHalted()  returns FALSE (0000ms, 3993ms total)
T6840 6463:985 JLINK_IsHalted()  returns FALSE (0000ms, 3993ms total)
T6840 6463:987 JLINK_IsHalted()  returns FALSE (0000ms, 3993ms total)
T6840 6463:989 JLINK_IsHalted()  returns FALSE (0000ms, 3993ms total)
T6840 6463:993 JLINK_IsHalted()  returns FALSE (0000ms, 3993ms total)
T6840 6463:995 JLINK_IsHalted()  returns FALSE (0000ms, 3993ms total)
T6840 6463:997 JLINK_IsHalted()  returns FALSE (0000ms, 3993ms total)
T6840 6464:001 JLINK_IsHalted()  returns FALSE (0000ms, 3993ms total)
T6840 6464:003 JLINK_IsHalted()  returns FALSE (0000ms, 3993ms total)
T6840 6464:007 JLINK_IsHalted()  returns FALSE (0000ms, 3993ms total)
T6840 6464:009 JLINK_IsHalted()  returns FALSE (0000ms, 3993ms total)
T6840 6464:011 JLINK_IsHalted()  returns FALSE (0000ms, 3993ms total)
T6840 6464:014 JLINK_IsHalted()  returns FALSE (0000ms, 3993ms total)
T6840 6464:016 JLINK_IsHalted()  returns FALSE (0000ms, 3993ms total)
T6840 6464:018 JLINK_IsHalted()  returns FALSE (0000ms, 3993ms total)
T6840 6464:022 JLINK_IsHalted()  returns FALSE (0000ms, 3993ms total)
T6840 6464:024 JLINK_IsHalted()  returns FALSE (0000ms, 3993ms total)
T6840 6464:026 JLINK_IsHalted()  returns FALSE (0000ms, 3993ms total)
T6840 6464:030 JLINK_IsHalted()  returns FALSE (0000ms, 3993ms total)
T6840 6464:032 JLINK_IsHalted()  returns FALSE (0000ms, 3993ms total)
T6840 6464:034 JLINK_IsHalted()  returns FALSE (0000ms, 3993ms total)
T6840 6464:037 JLINK_IsHalted()  returns FALSE (0000ms, 3993ms total)
T6840 6464:039 JLINK_IsHalted()  returns FALSE (0000ms, 3993ms total)
T6840 6464:042 JLINK_IsHalted()  returns FALSE (0000ms, 3993ms total)
T6840 6464:045 JLINK_IsHalted()  returns FALSE (0000ms, 3993ms total)
T6840 6464:047 JLINK_IsHalted()  returns FALSE (0000ms, 3993ms total)
T6840 6464:049 JLINK_IsHalted()  returns FALSE (0000ms, 3993ms total)
T6840 6464:053 JLINK_IsHalted()  returns FALSE (0000ms, 3993ms total)
T6840 6464:055 JLINK_IsHalted()  returns FALSE (0000ms, 3993ms total)
T6840 6464:057 JLINK_IsHalted()  returns FALSE (0000ms, 3993ms total)
T6840 6464:061 JLINK_IsHalted()  returns FALSE (0000ms, 3993ms total)
T6840 6464:063 JLINK_IsHalted()  returns FALSE (0000ms, 3993ms total)
T6840 6464:066 JLINK_IsHalted()  returns FALSE (0000ms, 3993ms total)
T6840 6464:068 JLINK_IsHalted()  returns FALSE (0000ms, 3993ms total)
T6840 6464:070 JLINK_IsHalted()  returns FALSE (0000ms, 3993ms total)
T6840 6464:072 JLINK_IsHalted()  returns FALSE (0000ms, 3993ms total)
T6840 6464:076 JLINK_IsHalted()  returns FALSE (0000ms, 3993ms total)
T6840 6464:078 JLINK_IsHalted()  returns FALSE (0000ms, 3993ms total)
T6840 6464:081 JLINK_IsHalted()  returns FALSE (0000ms, 3993ms total)
T6840 6464:083 JLINK_IsHalted()  returns FALSE (0000ms, 3993ms total)
T6840 6464:085 JLINK_IsHalted()  returns FALSE (0000ms, 3993ms total)
T6840 6464:087 JLINK_IsHalted()  returns FALSE (0000ms, 3993ms total)
T6840 6464:092 JLINK_IsHalted()  returns FALSE (0000ms, 3993ms total)
T6840 6464:094 JLINK_IsHalted()  returns FALSE (0000ms, 3993ms total)
T6840 6464:097 JLINK_IsHalted()  returns FALSE (0000ms, 3993ms total)
T6840 6464:099 JLINK_IsHalted()  returns FALSE (0000ms, 3993ms total)
T6840 6464:101 JLINK_IsHalted()  returns FALSE (0000ms, 3993ms total)
T6840 6464:106 JLINK_IsHalted()  returns FALSE (0000ms, 3993ms total)
T6840 6464:108 JLINK_IsHalted()  returns FALSE (0000ms, 3993ms total)
T6840 6464:110 JLINK_IsHalted()  returns FALSE (0000ms, 3993ms total)
T6840 6464:114 JLINK_IsHalted()  returns FALSE (0000ms, 3993ms total)
T6840 6464:116 JLINK_IsHalted()  returns FALSE (0000ms, 3993ms total)
T6840 6464:121 JLINK_IsHalted()  returns FALSE (0000ms, 3993ms total)
T6840 6464:122 JLINK_IsHalted()  returns FALSE (0000ms, 3993ms total)
T6840 6464:124 JLINK_IsHalted()  returns FALSE (0000ms, 3993ms total)
T6840 6464:127 JLINK_IsHalted()  returns FALSE (0000ms, 3993ms total)
T6840 6464:129 JLINK_IsHalted()  returns FALSE (0000ms, 3993ms total)
T6840 6464:132 JLINK_IsHalted()  returns FALSE (0000ms, 3993ms total)
T6840 6464:135 JLINK_IsHalted()  returns FALSE (0000ms, 3993ms total)
T6840 6464:137 JLINK_IsHalted()  returns FALSE (0000ms, 3993ms total)
T6840 6464:139 JLINK_IsHalted()  returns FALSE (0000ms, 3993ms total)
T6840 6464:142 JLINK_IsHalted()  returns FALSE (0000ms, 3993ms total)
T6840 6464:144 JLINK_IsHalted()  returns FALSE (0000ms, 3993ms total)
T6840 6464:146 JLINK_IsHalted()  returns FALSE (0000ms, 3993ms total)
T6840 6464:148 JLINK_IsHalted()  returns FALSE (0000ms, 3993ms total)
T6840 6464:150 JLINK_IsHalted()  returns FALSE (0000ms, 3993ms total)
T6840 6464:152 JLINK_IsHalted()  returns FALSE (0000ms, 3993ms total)
T6840 6464:154 JLINK_IsHalted()  returns FALSE (0000ms, 3993ms total)
T6840 6464:157 JLINK_IsHalted()  returns FALSE (0000ms, 3993ms total)
T6840 6464:159 JLINK_IsHalted()  returns FALSE (0000ms, 3993ms total)
T6840 6464:161 JLINK_IsHalted()  returns FALSE (0000ms, 3993ms total)
T6840 6464:163 JLINK_IsHalted()  returns FALSE (0000ms, 3993ms total)
T6840 6464:166 JLINK_IsHalted()  returns FALSE (0000ms, 3993ms total)
T6840 6464:168 JLINK_IsHalted()  returns FALSE (0000ms, 3993ms total)
T6840 6464:172 JLINK_IsHalted()  returns FALSE (0000ms, 3993ms total)
T6840 6464:174 JLINK_IsHalted()  returns FALSE (0000ms, 3993ms total)
T6840 6464:176 JLINK_IsHalted()  returns FALSE (0000ms, 3993ms total)
T6840 6464:178 JLINK_IsHalted()  returns FALSE (0000ms, 3993ms total)
T6840 6464:180 JLINK_IsHalted()  returns FALSE (0000ms, 3993ms total)
T6840 6464:182 JLINK_IsHalted()  returns FALSE (0000ms, 3993ms total)
T6840 6464:184 JLINK_IsHalted()  returns FALSE (0000ms, 3993ms total)
T6840 6464:186 JLINK_IsHalted()  returns FALSE (0000ms, 3993ms total)
T6840 6464:188 JLINK_IsHalted()  returns FALSE (0000ms, 3993ms total)
T6840 6464:190 JLINK_IsHalted()  returns FALSE (0000ms, 3993ms total)
T6840 6464:194 JLINK_IsHalted() -- CPU_ReadMem(2 bytes @ 0x20000000)  returns TRUE (0003ms, 3996ms total)
T6840 6464:198 JLINK_ReadReg(R15 (PC))  returns 0x20000000 (0000ms, 3993ms total)
T6840 6464:198 JLINK_ClrBPEx(BPHandle = 0x00000003)  returns 0x00 (0000ms, 3993ms total)
T6840 6464:198 JLINK_ReadReg(R0)  returns 0x00000000 (0000ms, 3993ms total)
T6840 6464:198 JLINK_WriteReg(R0, 0x00000001)  returns 0x00 (0000ms, 3993ms total)
T6840 6464:198 JLINK_WriteReg(R1, 0x00004000)  returns 0x00 (0000ms, 3993ms total)
T6840 6464:198 JLINK_WriteReg(R2, 0x00000000)  returns 0x00 (0000ms, 3993ms total)
T6840 6464:198 JLINK_WriteReg(R3, 0x00000000)  returns 0x00 (0000ms, 3993ms total)
T6840 6464:198 JLINK_WriteReg(R4, 0x00000000)  returns 0x00 (0000ms, 3993ms total)
T6840 6464:198 JLINK_WriteReg(R5, 0x00000000)  returns 0x00 (0000ms, 3993ms total)
T6840 6464:198 JLINK_WriteReg(R6, 0x00000000)  returns 0x00 (0000ms, 3993ms total)
T6840 6464:198 JLINK_WriteReg(R7, 0x00000000)  returns 0x00 (0000ms, 3993ms total)
T6840 6464:198 JLINK_WriteReg(R8, 0x00000000)  returns 0x00 (0000ms, 3993ms total)
T6840 6464:198 JLINK_WriteReg(R9, 0x20000134)  returns 0x00 (0000ms, 3993ms total)
T6840 6464:198 JLINK_WriteReg(R10, 0x00000000)  returns 0x00 (0000ms, 3993ms total)
T6840 6464:198 JLINK_WriteReg(R11, 0x00000000)  returns 0x00 (0000ms, 3993ms total)
T6840 6464:198 JLINK_WriteReg(R12, 0x00000000)  returns 0x00 (0000ms, 3993ms total)
T6840 6464:198 JLINK_WriteReg(R13 (SP), 0x20001000)  returns 0x00 (0000ms, 3993ms total)
T6840 6464:198 JLINK_WriteReg(R14, 0x20000001)  returns 0x00 (0000ms, 3993ms total)
T6840 6464:198 JLINK_WriteReg(R15 (PC), 0x2000003C)  returns 0x00 (0000ms, 3993ms total)
T6840 6464:198 JLINK_WriteReg(XPSR, 0x01000000)  returns 0x00 (0000ms, 3993ms total)
T6840 6464:198 JLINK_WriteReg(MSP, 0x20001000)  returns 0x00 (0000ms, 3993ms total)
T6840 6464:198 JLINK_WriteReg(PSP, 0x20001000)  returns 0x00 (0000ms, 3993ms total)
T6840 6464:198 JLINK_WriteReg(CFBP, 0x00000000)  returns 0x00 (0001ms, 3994ms total)
T6840 6464:199 JLINK_SetBPEx(Addr = 0x20000000, Type = 0xFFFFFFF2)  returns 0x00000004 (0000ms, 3994ms total)
T6840 6464:199 JLINK_Go() -- CPU_ReadMem(4 bytes @ 0xE0001000) (0002ms, 3996ms total)
T6840 6464:201 JLINK_IsHalted() -- CPU_ReadMem(2 bytes @ 0x20000000)  returns TRUE (0004ms, 4000ms total)
T6840 6464:205 JLINK_ReadReg(R15 (PC))  returns 0x20000000 (0000ms, 3996ms total)
T6840 6464:205 JLINK_ClrBPEx(BPHandle = 0x00000004)  returns 0x00 (0000ms, 3996ms total)
T6840 6464:205 JLINK_ReadReg(R0)  returns 0x00000000 (0000ms, 3996ms total)
T6840 6464:265 JLINK_WriteMem(0x20000000, 0x0138 Bytes, ...) - Data: 00 BE 0A E0 0D 78 2D 06 68 40 08 24 40 00 00 D3 ... -- CPU_WriteMem(312 bytes @ 0x20000000)  returns 0x138 (0003ms, 3999ms total)
T6840 6464:268 JLINK_WriteReg(R0, 0x08000000)  returns 0x00 (0000ms, 3999ms total)
T6840 6464:268 JLINK_WriteReg(R1, 0x00B71B00)  returns 0x00 (0000ms, 3999ms total)
T6840 6464:268 JLINK_WriteReg(R2, 0x00000002)  returns 0x00 (0000ms, 3999ms total)
T6840 6464:268 JLINK_WriteReg(R3, 0x00000000)  returns 0x00 (0000ms, 3999ms total)
T6840 6464:268 JLINK_WriteReg(R4, 0x00000000)  returns 0x00 (0000ms, 3999ms total)
T6840 6464:268 JLINK_WriteReg(R5, 0x00000000)  returns 0x00 (0000ms, 3999ms total)
T6840 6464:268 JLINK_WriteReg(R6, 0x00000000)  returns 0x00 (0000ms, 3999ms total)
T6840 6464:268 JLINK_WriteReg(R7, 0x00000000)  returns 0x00 (0000ms, 3999ms total)
T6840 6464:268 JLINK_WriteReg(R8, 0x00000000)  returns 0x00 (0000ms, 3999ms total)
T6840 6464:268 JLINK_WriteReg(R9, 0x20000134)  returns 0x00 (0000ms, 3999ms total)
T6840 6464:268 JLINK_WriteReg(R10, 0x00000000)  returns 0x00 (0000ms, 3999ms total)
T6840 6464:268 JLINK_WriteReg(R11, 0x00000000)  returns 0x00 (0000ms, 3999ms total)
T6840 6464:268 JLINK_WriteReg(R12, 0x00000000)  returns 0x00 (0000ms, 3999ms total)
T6840 6464:268 JLINK_WriteReg(R13 (SP), 0x20001000)  returns 0x00 (0000ms, 3999ms total)
T6840 6464:268 JLINK_WriteReg(R14, 0x20000001)  returns 0x00 (0000ms, 3999ms total)
T6840 6464:268 JLINK_WriteReg(R15 (PC), 0x20000038)  returns 0x00 (0000ms, 3999ms total)
T6840 6464:268 JLINK_WriteReg(XPSR, 0x01000000)  returns 0x00 (0000ms, 3999ms total)
T6840 6464:268 JLINK_WriteReg(MSP, 0x20001000)  returns 0x00 (0000ms, 3999ms total)
T6840 6464:268 JLINK_WriteReg(PSP, 0x20001000)  returns 0x00 (0000ms, 3999ms total)
T6840 6464:268 JLINK_WriteReg(CFBP, 0x00000000)  returns 0x00 (0000ms, 3999ms total)
T6840 6464:268 JLINK_SetBPEx(Addr = 0x20000000, Type = 0xFFFFFFF2) -- CPU_ReadMem(2 bytes @ 0x20000000)  returns 0x00000005 (0001ms, 4000ms total)
T6840 6464:269 JLINK_Go() -- CPU_WriteMem(2 bytes @ 0x20000000) -- CPU_ReadMem(4 bytes @ 0xE0001000) (0003ms, 4003ms total)
T6840 6464:272 JLINK_IsHalted() -- CPU_ReadMem(2 bytes @ 0x20000000)  returns TRUE (0003ms, 4006ms total)
T6840 6464:275 JLINK_ReadReg(R15 (PC))  returns 0x20000000 (0000ms, 4003ms total)
T6840 6464:275 JLINK_ClrBPEx(BPHandle = 0x00000005)  returns 0x00 (0000ms, 4003ms total)
T6840 6464:275 JLINK_ReadReg(R0)  returns 0x00000000 (0000ms, 4003ms total)
T6840 6464:276 JLINK_WriteMem(0x20000138, 0x0100 Bytes, ...) - Data: 58 97 00 20 DD 02 00 08 E9 02 00 08 E9 02 00 08 ... -- CPU_WriteMem(256 bytes @ 0x20000138)  returns 0x100 (0002ms, 4005ms total)
T6840 6464:278 JLINK_WriteReg(R0, 0x08000000)  returns 0x00 (0000ms, 4005ms total)
T6840 6464:278 JLINK_WriteReg(R1, 0x00000100)  returns 0x00 (0000ms, 4005ms total)
T6840 6464:278 JLINK_WriteReg(R2, 0x20000138)  returns 0x00 (0000ms, 4005ms total)
T6840 6464:278 JLINK_WriteReg(R3, 0x00000000)  returns 0x00 (0000ms, 4005ms total)
T6840 6464:278 JLINK_WriteReg(R4, 0x00000000)  returns 0x00 (0000ms, 4005ms total)
T6840 6464:278 JLINK_WriteReg(R5, 0x00000000)  returns 0x00 (0000ms, 4005ms total)
T6840 6464:278 JLINK_WriteReg(R6, 0x00000000)  returns 0x00 (0000ms, 4005ms total)
T6840 6464:278 JLINK_WriteReg(R7, 0x00000000)  returns 0x00 (0000ms, 4005ms total)
T6840 6464:278 JLINK_WriteReg(R8, 0x00000000)  returns 0x00 (0000ms, 4005ms total)
T6840 6464:278 JLINK_WriteReg(R9, 0x20000134)  returns 0x00 (0000ms, 4005ms total)
T6840 6464:278 JLINK_WriteReg(R10, 0x00000000)  returns 0x00 (0000ms, 4005ms total)
T6840 6464:278 JLINK_WriteReg(R11, 0x00000000)  returns 0x00 (0000ms, 4005ms total)
T6840 6464:278 JLINK_WriteReg(R12, 0x00000000)  returns 0x00 (0000ms, 4005ms total)
T6840 6464:278 JLINK_WriteReg(R13 (SP), 0x20001000)  returns 0x00 (0000ms, 4005ms total)
T6840 6464:278 JLINK_WriteReg(R14, 0x20000001)  returns 0x00 (0000ms, 4005ms total)
T6840 6464:278 JLINK_WriteReg(R15 (PC), 0x200000B0)  returns 0x00 (0000ms, 4005ms total)
T6840 6464:278 JLINK_WriteReg(XPSR, 0x01000000)  returns 0x00 (0000ms, 4005ms total)
T6840 6464:278 JLINK_WriteReg(MSP, 0x20001000)  returns 0x00 (0000ms, 4005ms total)
T6840 6464:278 JLINK_WriteReg(PSP, 0x20001000)  returns 0x00 (0000ms, 4005ms total)
T6840 6464:278 JLINK_WriteReg(CFBP, 0x00000000)  returns 0x00 (0000ms, 4005ms total)
T6840 6464:278 JLINK_SetBPEx(Addr = 0x20000000, Type = 0xFFFFFFF2)  returns 0x00000006 (0000ms, 4005ms total)
T6840 6464:278 JLINK_Go() -- CPU_ReadMem(4 bytes @ 0xE0001000) (0002ms, 4007ms total)
T6840 6464:280 JLINK_IsHalted()  returns FALSE (0001ms, 4008ms total)
T6840 6464:286 JLINK_IsHalted() -- CPU_ReadMem(2 bytes @ 0x20000000)  returns TRUE (0004ms, 4011ms total)
T6840 6464:290 JLINK_ReadReg(R15 (PC))  returns 0x20000000 (0000ms, 4007ms total)
T6840 6464:290 JLINK_ClrBPEx(BPHandle = 0x00000006)  returns 0x00 (0000ms, 4007ms total)
T6840 6464:290 JLINK_ReadReg(R0)  returns 0x00000000 (0000ms, 4007ms total)
T6840 6464:290 JLINK_WriteMem(0x20000138, 0x0100 Bytes, ...) - Data: E9 02 00 08 E9 02 00 08 E9 02 00 08 E9 02 00 08 ... -- CPU_WriteMem(256 bytes @ 0x20000138)  returns 0x100 (0002ms, 4009ms total)
T6840 6464:292 JLINK_WriteReg(R0, 0x08000100)  returns 0x00 (0000ms, 4009ms total)
T6840 6464:292 JLINK_WriteReg(R1, 0x00000100)  returns 0x00 (0000ms, 4009ms total)
T6840 6464:292 JLINK_WriteReg(R2, 0x20000138)  returns 0x00 (0000ms, 4009ms total)
T6840 6464:292 JLINK_WriteReg(R3, 0x00000000)  returns 0x00 (0000ms, 4009ms total)
T6840 6464:292 JLINK_WriteReg(R4, 0x00000000)  returns 0x00 (0000ms, 4009ms total)
T6840 6464:292 JLINK_WriteReg(R5, 0x00000000)  returns 0x00 (0000ms, 4009ms total)
T6840 6464:292 JLINK_WriteReg(R6, 0x00000000)  returns 0x00 (0001ms, 4010ms total)
T6840 6464:293 JLINK_WriteReg(R7, 0x00000000)  returns 0x00 (0000ms, 4010ms total)
T6840 6464:293 JLINK_WriteReg(R8, 0x00000000)  returns 0x00 (0000ms, 4010ms total)
T6840 6464:293 JLINK_WriteReg(R9, 0x20000134)  returns 0x00 (0000ms, 4010ms total)
T6840 6464:293 JLINK_WriteReg(R10, 0x00000000)  returns 0x00 (0000ms, 4010ms total)
T6840 6464:293 JLINK_WriteReg(R11, 0x00000000)  returns 0x00 (0000ms, 4010ms total)
T6840 6464:293 JLINK_WriteReg(R12, 0x00000000)  returns 0x00 (0000ms, 4010ms total)
T6840 6464:293 JLINK_WriteReg(R13 (SP), 0x20001000)  returns 0x00 (0000ms, 4010ms total)
T6840 6464:293 JLINK_WriteReg(R14, 0x20000001)  returns 0x00 (0000ms, 4010ms total)
T6840 6464:293 JLINK_WriteReg(R15 (PC), 0x200000B0)  returns 0x00 (0000ms, 4010ms total)
T6840 6464:293 JLINK_WriteReg(XPSR, 0x01000000)  returns 0x00 (0000ms, 4010ms total)
T6840 6464:293 JLINK_WriteReg(MSP, 0x20001000)  returns 0x00 (0000ms, 4010ms total)
T6840 6464:293 JLINK_WriteReg(PSP, 0x20001000)  returns 0x00 (0000ms, 4010ms total)
T6840 6464:293 JLINK_WriteReg(CFBP, 0x00000000)  returns 0x00 (0000ms, 4010ms total)
T6840 6464:293 JLINK_SetBPEx(Addr = 0x20000000, Type = 0xFFFFFFF2)  returns 0x00000007 (0000ms, 4010ms total)
T6840 6464:293 JLINK_Go() -- CPU_ReadMem(4 bytes @ 0xE0001000) (0002ms, 4012ms total)
T6840 6464:295 JLINK_IsHalted()  returns FALSE (0000ms, 4012ms total)
T6840 6464:300 JLINK_IsHalted() -- CPU_ReadMem(2 bytes @ 0x20000000)  returns TRUE (0004ms, 4016ms total)
T6840 6464:304 JLINK_ReadReg(R15 (PC))  returns 0x20000000 (0000ms, 4012ms total)
T6840 6464:304 JLINK_ClrBPEx(BPHandle = 0x00000007)  returns 0x00 (0000ms, 4012ms total)
T6840 6464:304 JLINK_ReadReg(R0)  returns 0x00000000 (0000ms, 4012ms total)
T6840 6464:305 JLINK_WriteMem(0x20000138, 0x0100 Bytes, ...) - Data: DF F8 0C D0 00 F0 9C F8 00 48 00 47 F5 0B 00 08 ... -- CPU_WriteMem(256 bytes @ 0x20000138)  returns 0x100 (0002ms, 4014ms total)
T6840 6464:307 JLINK_WriteReg(R0, 0x08000200)  returns 0x00 (0000ms, 4014ms total)
T6840 6464:307 JLINK_WriteReg(R1, 0x00000100)  returns 0x00 (0000ms, 4014ms total)
T6840 6464:307 JLINK_WriteReg(R2, 0x20000138)  returns 0x00 (0000ms, 4014ms total)
T6840 6464:307 JLINK_WriteReg(R3, 0x00000000)  returns 0x00 (0000ms, 4014ms total)
T6840 6464:307 JLINK_WriteReg(R4, 0x00000000)  returns 0x00 (0000ms, 4014ms total)
T6840 6464:307 JLINK_WriteReg(R5, 0x00000000)  returns 0x00 (0000ms, 4014ms total)
T6840 6464:307 JLINK_WriteReg(R6, 0x00000000)  returns 0x00 (0000ms, 4014ms total)
T6840 6464:307 JLINK_WriteReg(R7, 0x00000000)  returns 0x00 (0000ms, 4014ms total)
T6840 6464:307 JLINK_WriteReg(R8, 0x00000000)  returns 0x00 (0000ms, 4014ms total)
T6840 6464:307 JLINK_WriteReg(R9, 0x20000134)  returns 0x00 (0000ms, 4014ms total)
T6840 6464:307 JLINK_WriteReg(R10, 0x00000000)  returns 0x00 (0000ms, 4014ms total)
T6840 6464:307 JLINK_WriteReg(R11, 0x00000000)  returns 0x00 (0000ms, 4014ms total)
T6840 6464:307 JLINK_WriteReg(R12, 0x00000000)  returns 0x00 (0000ms, 4014ms total)
T6840 6464:307 JLINK_WriteReg(R13 (SP), 0x20001000)  returns 0x00 (0000ms, 4014ms total)
T6840 6464:307 JLINK_WriteReg(R14, 0x20000001)  returns 0x00 (0000ms, 4014ms total)
T6840 6464:307 JLINK_WriteReg(R15 (PC), 0x200000B0)  returns 0x00 (0000ms, 4014ms total)
T6840 6464:307 JLINK_WriteReg(XPSR, 0x01000000)  returns 0x00 (0000ms, 4014ms total)
T6840 6464:307 JLINK_WriteReg(MSP, 0x20001000)  returns 0x00 (0000ms, 4014ms total)
T6840 6464:307 JLINK_WriteReg(PSP, 0x20001000)  returns 0x00 (0000ms, 4014ms total)
T6840 6464:307 JLINK_WriteReg(CFBP, 0x00000000)  returns 0x00 (0000ms, 4014ms total)
T6840 6464:307 JLINK_SetBPEx(Addr = 0x20000000, Type = 0xFFFFFFF2)  returns 0x00000008 (0000ms, 4014ms total)
T6840 6464:307 JLINK_Go() -- CPU_ReadMem(4 bytes @ 0xE0001000) (0003ms, 4017ms total)
T6840 6464:310 JLINK_IsHalted()  returns FALSE (0000ms, 4017ms total)
T6840 6464:316 JLINK_IsHalted() -- CPU_ReadMem(2 bytes @ 0x20000000)  returns TRUE (0004ms, 4021ms total)
T6840 6464:320 JLINK_ReadReg(R15 (PC))  returns 0x20000000 (0000ms, 4017ms total)
T6840 6464:320 JLINK_ClrBPEx(BPHandle = 0x00000008)  returns 0x00 (0000ms, 4017ms total)
T6840 6464:320 JLINK_ReadReg(R0)  returns 0x00000000 (0000ms, 4017ms total)
T6840 6464:321 JLINK_WriteMem(0x20000138, 0x0100 Bytes, ...) - Data: 09 E0 08 C9 12 1F 08 C0 04 2A FA D2 03 E0 11 F8 ... -- CPU_WriteMem(256 bytes @ 0x20000138)  returns 0x100 (0002ms, 4019ms total)
T6840 6464:323 JLINK_WriteReg(R0, 0x08000300)  returns 0x00 (0000ms, 4019ms total)
T6840 6464:323 JLINK_WriteReg(R1, 0x00000100)  returns 0x00 (0000ms, 4019ms total)
T6840 6464:323 JLINK_WriteReg(R2, 0x20000138)  returns 0x00 (0000ms, 4019ms total)
T6840 6464:323 JLINK_WriteReg(R3, 0x00000000)  returns 0x00 (0000ms, 4019ms total)
T6840 6464:323 JLINK_WriteReg(R4, 0x00000000)  returns 0x00 (0000ms, 4019ms total)
T6840 6464:323 JLINK_WriteReg(R5, 0x00000000)  returns 0x00 (0000ms, 4019ms total)
T6840 6464:323 JLINK_WriteReg(R6, 0x00000000)  returns 0x00 (0000ms, 4019ms total)
T6840 6464:323 JLINK_WriteReg(R7, 0x00000000)  returns 0x00 (0000ms, 4019ms total)
T6840 6464:323 JLINK_WriteReg(R8, 0x00000000)  returns 0x00 (0000ms, 4019ms total)
T6840 6464:323 JLINK_WriteReg(R9, 0x20000134)  returns 0x00 (0000ms, 4019ms total)
T6840 6464:323 JLINK_WriteReg(R10, 0x00000000)  returns 0x00 (0000ms, 4019ms total)
T6840 6464:323 JLINK_WriteReg(R11, 0x00000000)  returns 0x00 (0000ms, 4019ms total)
T6840 6464:323 JLINK_WriteReg(R12, 0x00000000)  returns 0x00 (0000ms, 4019ms total)
T6840 6464:323 JLINK_WriteReg(R13 (SP), 0x20001000)  returns 0x00 (0000ms, 4019ms total)
T6840 6464:323 JLINK_WriteReg(R14, 0x20000001)  returns 0x00 (0000ms, 4019ms total)
T6840 6464:323 JLINK_WriteReg(R15 (PC), 0x200000B0)  returns 0x00 (0000ms, 4019ms total)
T6840 6464:323 JLINK_WriteReg(XPSR, 0x01000000)  returns 0x00 (0000ms, 4019ms total)
T6840 6464:323 JLINK_WriteReg(MSP, 0x20001000)  returns 0x00 (0000ms, 4019ms total)
T6840 6464:323 JLINK_WriteReg(PSP, 0x20001000)  returns 0x00 (0000ms, 4019ms total)
T6840 6464:323 JLINK_WriteReg(CFBP, 0x00000000)  returns 0x00 (0000ms, 4019ms total)
T6840 6464:323 JLINK_SetBPEx(Addr = 0x20000000, Type = 0xFFFFFFF2)  returns 0x00000009 (0000ms, 4019ms total)
T6840 6464:323 JLINK_Go() -- CPU_ReadMem(4 bytes @ 0xE0001000) (0003ms, 4022ms total)
T6840 6464:326 JLINK_IsHalted()  returns FALSE (0000ms, 4022ms total)
T6840 6464:330 JLINK_IsHalted()  returns FALSE (0000ms, 4022ms total)
T6840 6464:332 JLINK_IsHalted() -- CPU_ReadMem(2 bytes @ 0x20000000)  returns TRUE (0003ms, 4025ms total)
T6840 6464:335 JLINK_ReadReg(R15 (PC))  returns 0x20000000 (0000ms, 4022ms total)
T6840 6464:336 JLINK_ClrBPEx(BPHandle = 0x00000009)  returns 0x00 (0000ms, 4023ms total)
T6840 6464:336 JLINK_ReadReg(R0)  returns 0x00000000 (0000ms, 4023ms total)
T6840 6464:337 JLINK_WriteMem(0x20000138, 0x0100 Bytes, ...) - Data: E5 F8 04 46 01 2C 02 D1 11 A0 00 F0 B7 FB 16 48 ... -- CPU_WriteMem(256 bytes @ 0x20000138)  returns 0x100 (0002ms, 4025ms total)
T6840 6464:339 JLINK_WriteReg(R0, 0x08000400)  returns 0x00 (0000ms, 4025ms total)
T6840 6464:339 JLINK_WriteReg(R1, 0x00000100)  returns 0x00 (0000ms, 4025ms total)
T6840 6464:339 JLINK_WriteReg(R2, 0x20000138)  returns 0x00 (0000ms, 4025ms total)
T6840 6464:339 JLINK_WriteReg(R3, 0x00000000)  returns 0x00 (0000ms, 4025ms total)
T6840 6464:339 JLINK_WriteReg(R4, 0x00000000)  returns 0x00 (0000ms, 4025ms total)
T6840 6464:339 JLINK_WriteReg(R5, 0x00000000)  returns 0x00 (0000ms, 4025ms total)
T6840 6464:339 JLINK_WriteReg(R6, 0x00000000)  returns 0x00 (0000ms, 4025ms total)
T6840 6464:339 JLINK_WriteReg(R7, 0x00000000)  returns 0x00 (0000ms, 4025ms total)
T6840 6464:339 JLINK_WriteReg(R8, 0x00000000)  returns 0x00 (0000ms, 4025ms total)
T6840 6464:339 JLINK_WriteReg(R9, 0x20000134)  returns 0x00 (0000ms, 4025ms total)
T6840 6464:339 JLINK_WriteReg(R10, 0x00000000)  returns 0x00 (0000ms, 4025ms total)
T6840 6464:339 JLINK_WriteReg(R11, 0x00000000)  returns 0x00 (0000ms, 4025ms total)
T6840 6464:339 JLINK_WriteReg(R12, 0x00000000)  returns 0x00 (0000ms, 4025ms total)
T6840 6464:339 JLINK_WriteReg(R13 (SP), 0x20001000)  returns 0x00 (0000ms, 4025ms total)
T6840 6464:339 JLINK_WriteReg(R14, 0x20000001)  returns 0x00 (0000ms, 4025ms total)
T6840 6464:339 JLINK_WriteReg(R15 (PC), 0x200000B0)  returns 0x00 (0000ms, 4025ms total)
T6840 6464:339 JLINK_WriteReg(XPSR, 0x01000000)  returns 0x00 (0000ms, 4025ms total)
T6840 6464:339 JLINK_WriteReg(MSP, 0x20001000)  returns 0x00 (0000ms, 4025ms total)
T6840 6464:339 JLINK_WriteReg(PSP, 0x20001000)  returns 0x00 (0000ms, 4025ms total)
T6840 6464:339 JLINK_WriteReg(CFBP, 0x00000000)  returns 0x00 (0000ms, 4025ms total)
T6840 6464:339 JLINK_SetBPEx(Addr = 0x20000000, Type = 0xFFFFFFF2)  returns 0x0000000A (0000ms, 4025ms total)
T6840 6464:339 JLINK_Go() -- CPU_ReadMem(4 bytes @ 0xE0001000) (0002ms, 4027ms total)
T6840 6464:341 JLINK_IsHalted()  returns FALSE (0001ms, 4028ms total)
T6840 6464:346 JLINK_IsHalted()  returns FALSE (0000ms, 4027ms total)
T6840 6464:348 JLINK_IsHalted() -- CPU_ReadMem(2 bytes @ 0x20000000)  returns TRUE (0003ms, 4030ms total)
T6840 6464:351 JLINK_ReadReg(R15 (PC))  returns 0x20000000 (0000ms, 4027ms total)
T6840 6464:351 JLINK_ClrBPEx(BPHandle = 0x0000000A)  returns 0x00 (0000ms, 4027ms total)
T6840 6464:351 JLINK_ReadReg(R0)  returns 0x00000000 (0000ms, 4027ms total)
T6840 6464:352 JLINK_WriteMem(0x20000138, 0x0100 Bytes, ...) - Data: 00 11 00 BF 10 BD 00 00 00 E4 00 E0 18 ED 00 E0 ... -- CPU_WriteMem(256 bytes @ 0x20000138)  returns 0x100 (0002ms, 4029ms total)
T6840 6464:354 JLINK_WriteReg(R0, 0x08000500)  returns 0x00 (0000ms, 4029ms total)
T6840 6464:354 JLINK_WriteReg(R1, 0x00000100)  returns 0x00 (0000ms, 4029ms total)
T6840 6464:354 JLINK_WriteReg(R2, 0x20000138)  returns 0x00 (0000ms, 4029ms total)
T6840 6464:354 JLINK_WriteReg(R3, 0x00000000)  returns 0x00 (0000ms, 4029ms total)
T6840 6464:354 JLINK_WriteReg(R4, 0x00000000)  returns 0x00 (0000ms, 4029ms total)
T6840 6464:354 JLINK_WriteReg(R5, 0x00000000)  returns 0x00 (0000ms, 4029ms total)
T6840 6464:354 JLINK_WriteReg(R6, 0x00000000)  returns 0x00 (0000ms, 4029ms total)
T6840 6464:354 JLINK_WriteReg(R7, 0x00000000)  returns 0x00 (0000ms, 4029ms total)
T6840 6464:354 JLINK_WriteReg(R8, 0x00000000)  returns 0x00 (0000ms, 4029ms total)
T6840 6464:354 JLINK_WriteReg(R9, 0x20000134)  returns 0x00 (0000ms, 4029ms total)
T6840 6464:354 JLINK_WriteReg(R10, 0x00000000)  returns 0x00 (0000ms, 4029ms total)
T6840 6464:354 JLINK_WriteReg(R11, 0x00000000)  returns 0x00 (0000ms, 4029ms total)
T6840 6464:354 JLINK_WriteReg(R12, 0x00000000)  returns 0x00 (0000ms, 4029ms total)
T6840 6464:354 JLINK_WriteReg(R13 (SP), 0x20001000)  returns 0x00 (0000ms, 4029ms total)
T6840 6464:354 JLINK_WriteReg(R14, 0x20000001)  returns 0x00 (0000ms, 4029ms total)
T6840 6464:354 JLINK_WriteReg(R15 (PC), 0x200000B0)  returns 0x00 (0000ms, 4029ms total)
T6840 6464:354 JLINK_WriteReg(XPSR, 0x01000000)  returns 0x00 (0000ms, 4029ms total)
T6840 6464:354 JLINK_WriteReg(MSP, 0x20001000)  returns 0x00 (0001ms, 4030ms total)
T6840 6464:355 JLINK_WriteReg(PSP, 0x20001000)  returns 0x00 (0000ms, 4030ms total)
T6840 6464:355 JLINK_WriteReg(CFBP, 0x00000000)  returns 0x00 (0000ms, 4030ms total)
T6840 6464:355 JLINK_SetBPEx(Addr = 0x20000000, Type = 0xFFFFFFF2)  returns 0x0000000B (0000ms, 4030ms total)
T6840 6464:355 JLINK_Go() -- CPU_ReadMem(4 bytes @ 0xE0001000) (0002ms, 4032ms total)
T6840 6464:357 JLINK_IsHalted()  returns FALSE (0000ms, 4032ms total)
T6840 6464:361 JLINK_IsHalted()  returns FALSE (0000ms, 4032ms total)
T6840 6464:363 JLINK_IsHalted() -- CPU_ReadMem(2 bytes @ 0x20000000)  returns TRUE (0004ms, 4036ms total)
T6840 6464:367 JLINK_ReadReg(R15 (PC))  returns 0x20000000 (0000ms, 4032ms total)
T6840 6464:367 JLINK_ClrBPEx(BPHandle = 0x0000000B)  returns 0x00 (0000ms, 4032ms total)
T6840 6464:367 JLINK_ReadReg(R0)  returns 0x00000000 (0000ms, 4032ms total)
T6840 6464:368 JLINK_WriteMem(0x20000138, 0x0100 Bytes, ...) - Data: 10 39 08 60 FF F7 9C FF 5B 49 B0 FB F1 F0 40 1E ... -- CPU_WriteMem(256 bytes @ 0x20000138)  returns 0x100 (0002ms, 4034ms total)
T6840 6464:370 JLINK_WriteReg(R0, 0x08000600)  returns 0x00 (0000ms, 4034ms total)
T6840 6464:370 JLINK_WriteReg(R1, 0x00000100)  returns 0x00 (0000ms, 4034ms total)
T6840 6464:370 JLINK_WriteReg(R2, 0x20000138)  returns 0x00 (0000ms, 4034ms total)
T6840 6464:370 JLINK_WriteReg(R3, 0x00000000)  returns 0x00 (0000ms, 4034ms total)
T6840 6464:370 JLINK_WriteReg(R4, 0x00000000)  returns 0x00 (0000ms, 4034ms total)
T6840 6464:370 JLINK_WriteReg(R5, 0x00000000)  returns 0x00 (0000ms, 4034ms total)
T6840 6464:370 JLINK_WriteReg(R6, 0x00000000)  returns 0x00 (0000ms, 4034ms total)
T6840 6464:370 JLINK_WriteReg(R7, 0x00000000)  returns 0x00 (0000ms, 4034ms total)
T6840 6464:370 JLINK_WriteReg(R8, 0x00000000)  returns 0x00 (0000ms, 4034ms total)
T6840 6464:370 JLINK_WriteReg(R9, 0x20000134)  returns 0x00 (0000ms, 4034ms total)
T6840 6464:370 JLINK_WriteReg(R10, 0x00000000)  returns 0x00 (0000ms, 4034ms total)
T6840 6464:370 JLINK_WriteReg(R11, 0x00000000)  returns 0x00 (0000ms, 4034ms total)
T6840 6464:370 JLINK_WriteReg(R12, 0x00000000)  returns 0x00 (0000ms, 4034ms total)
T6840 6464:370 JLINK_WriteReg(R13 (SP), 0x20001000)  returns 0x00 (0000ms, 4034ms total)
T6840 6464:370 JLINK_WriteReg(R14, 0x20000001)  returns 0x00 (0000ms, 4034ms total)
T6840 6464:370 JLINK_WriteReg(R15 (PC), 0x200000B0)  returns 0x00 (0000ms, 4034ms total)
T6840 6464:370 JLINK_WriteReg(XPSR, 0x01000000)  returns 0x00 (0000ms, 4034ms total)
T6840 6464:370 JLINK_WriteReg(MSP, 0x20001000)  returns 0x00 (0000ms, 4034ms total)
T6840 6464:370 JLINK_WriteReg(PSP, 0x20001000)  returns 0x00 (0000ms, 4034ms total)
T6840 6464:370 JLINK_WriteReg(CFBP, 0x00000000)  returns 0x00 (0000ms, 4034ms total)
T6840 6464:370 JLINK_SetBPEx(Addr = 0x20000000, Type = 0xFFFFFFF2)  returns 0x0000000C (0000ms, 4034ms total)
T6840 6464:370 JLINK_Go() -- CPU_ReadMem(4 bytes @ 0xE0001000) (0003ms, 4037ms total)
T6840 6464:373 JLINK_IsHalted()  returns FALSE (0000ms, 4037ms total)
T6840 6464:378 JLINK_IsHalted() -- CPU_ReadMem(2 bytes @ 0x20000000)  returns TRUE (0004ms, 4041ms total)
T6840 6464:382 JLINK_ReadReg(R15 (PC))  returns 0x20000000 (0000ms, 4037ms total)
T6840 6464:382 JLINK_ClrBPEx(BPHandle = 0x0000000C)  returns 0x00 (0000ms, 4037ms total)
T6840 6464:382 JLINK_ReadReg(R0)  returns 0x00000000 (0000ms, 4037ms total)
T6840 6464:382 JLINK_WriteMem(0x20000138, 0x0100 Bytes, ...) - Data: 00 68 00 F0 04 00 00 28 F8 D0 1F 48 17 49 09 1D ... -- CPU_WriteMem(256 bytes @ 0x20000138)  returns 0x100 (0002ms, 4039ms total)
T6840 6464:384 JLINK_WriteReg(R0, 0x08000700)  returns 0x00 (0001ms, 4040ms total)
T6840 6464:385 JLINK_WriteReg(R1, 0x00000100)  returns 0x00 (0000ms, 4040ms total)
T6840 6464:385 JLINK_WriteReg(R2, 0x20000138)  returns 0x00 (0000ms, 4040ms total)
T6840 6464:385 JLINK_WriteReg(R3, 0x00000000)  returns 0x00 (0000ms, 4040ms total)
T6840 6464:385 JLINK_WriteReg(R4, 0x00000000)  returns 0x00 (0000ms, 4040ms total)
T6840 6464:385 JLINK_WriteReg(R5, 0x00000000)  returns 0x00 (0000ms, 4040ms total)
T6840 6464:385 JLINK_WriteReg(R6, 0x00000000)  returns 0x00 (0000ms, 4040ms total)
T6840 6464:385 JLINK_WriteReg(R7, 0x00000000)  returns 0x00 (0000ms, 4040ms total)
T6840 6464:385 JLINK_WriteReg(R8, 0x00000000)  returns 0x00 (0000ms, 4040ms total)
T6840 6464:385 JLINK_WriteReg(R9, 0x20000134)  returns 0x00 (0000ms, 4040ms total)
T6840 6464:385 JLINK_WriteReg(R10, 0x00000000)  returns 0x00 (0000ms, 4040ms total)
T6840 6464:385 JLINK_WriteReg(R11, 0x00000000)  returns 0x00 (0000ms, 4040ms total)
T6840 6464:385 JLINK_WriteReg(R12, 0x00000000)  returns 0x00 (0000ms, 4040ms total)
T6840 6464:385 JLINK_WriteReg(R13 (SP), 0x20001000)  returns 0x00 (0000ms, 4040ms total)
T6840 6464:385 JLINK_WriteReg(R14, 0x20000001)  returns 0x00 (0000ms, 4040ms total)
T6840 6464:385 JLINK_WriteReg(R15 (PC), 0x200000B0)  returns 0x00 (0000ms, 4040ms total)
T6840 6464:385 JLINK_WriteReg(XPSR, 0x01000000)  returns 0x00 (0000ms, 4040ms total)
T6840 6464:385 JLINK_WriteReg(MSP, 0x20001000)  returns 0x00 (0000ms, 4040ms total)
T6840 6464:385 JLINK_WriteReg(PSP, 0x20001000)  returns 0x00 (0000ms, 4040ms total)
T6840 6464:385 JLINK_WriteReg(CFBP, 0x00000000)  returns 0x00 (0000ms, 4040ms total)
T6840 6464:385 JLINK_SetBPEx(Addr = 0x20000000, Type = 0xFFFFFFF2)  returns 0x0000000D (0000ms, 4040ms total)
T6840 6464:385 JLINK_Go() -- CPU_ReadMem(4 bytes @ 0xE0001000) (0002ms, 4042ms total)
T6840 6464:387 JLINK_IsHalted()  returns FALSE (0001ms, 4043ms total)
T6840 6464:390 JLINK_IsHalted()  returns FALSE (0000ms, 4042ms total)
T6840 6464:392 JLINK_IsHalted()  returns FALSE (0000ms, 4042ms total)
T6840 6464:394 JLINK_IsHalted() -- CPU_ReadMem(2 bytes @ 0x20000000)  returns TRUE (0004ms, 4046ms total)
T6840 6464:398 JLINK_ReadReg(R15 (PC))  returns 0x20000000 (0000ms, 4042ms total)
T6840 6464:398 JLINK_ClrBPEx(BPHandle = 0x0000000D)  returns 0x00 (0000ms, 4042ms total)
T6840 6464:398 JLINK_ReadReg(R0)  returns 0x00000000 (0000ms, 4042ms total)
T6840 6464:399 JLINK_WriteMem(0x20000138, 0x0100 Bytes, ...) - Data: 0A 48 08 49 09 68 C9 B2 49 1C B0 FB F1 F0 05 49 ... -- CPU_WriteMem(256 bytes @ 0x20000138)  returns 0x100 (0002ms, 4044ms total)
T6840 6464:401 JLINK_WriteReg(R0, 0x08000800)  returns 0x00 (0000ms, 4044ms total)
T6840 6464:401 JLINK_WriteReg(R1, 0x00000100)  returns 0x00 (0000ms, 4044ms total)
T6840 6464:401 JLINK_WriteReg(R2, 0x20000138)  returns 0x00 (0000ms, 4044ms total)
T6840 6464:401 JLINK_WriteReg(R3, 0x00000000)  returns 0x00 (0000ms, 4044ms total)
